!CSV A.01.01
!Agilent Technologies,N5225A,MY51451353,A.10.00.00
!Agilent N5225A: A.10.00.00
!Date: Sunday, September 20, 2020 15:33:46
!Source: Standard

BEGIN CH1_DATA
Freq(Hz),S12(DB),S12(DEG)
500000000,-9.6595716,-133.83284
532500000,-10.115777,-96.802406
565000000,-7.7871647,-14.527179
597500000,1.1019919,56.638832
630000000,4.6288624,92.318306
662500000,7.5152502,131.27544
695000000,15.083041,-167.33711
727500000,17.916973,114.95314
760000000,18.084721,65.313774
792500000,17.881329,13.288856
825000000,17.5525,-81.229347
857500000,17.916889,-137.48254
890000000,17.924299,-160.86165
922500000,17.601635,146.56062
955000000,17.939386,115.32352
987500000,17.79459,81.633118
1020000000,17.75672,67.448898
1052500000,15.949456,63.699848
1085000000,17.566196,52.674774
1117500000,15.108059,52.620445
1150000000,17.081512,79.278946
1182500000,16.741617,83.364639
1215000000,17.429375,99.009949
1247500000,16.909197,108.82716
1280000000,15.888547,164.98875
1312500000,15.716441,-159.77238
1345000000,15.600204,-111.89105
1377500000,15.534987,-81.614616
1410000000,13.415184,-30.2094
1442500000,14.827746,20.611046
1475000000,13.911137,67.941589
1507500000,14.601993,141.86746
1540000000,15.191787,-175.26775
1572500000,13.906072,-127.59112
1605000000,14.18716,-52.236446
1637500000,13.443689,2.8142083
1670000000,10.946505,75.587227
1702500000,12.175114,148.82698
1735000000,11.269291,-130.06596
1767500000,10.795043,-62.224171
1800000000,11.507948,29.174194
1832500000,12.138206,109.60149
1865000000,11.972919,-175.87299
1897500000,12.24008,-88.871712
1930000000,12.337687,-6.8482189
1962500000,11.996399,76.602638
1995000000,10.749883,164.1153
2027500000,9.5548286,-106.79239
2060000000,9.2239246,-14.679745
2092500000,6.7407103,73.141754
2125000000,4.0005841,167.34123
2157500000,2.150912,-76.595711
2190000000,3.2834487,19.14183
2222500000,0.89853626,111.43984
2255000000,-2.8557785,-137.40334
2287500000,-2.1051228,-23.813656
2320000000,-6.4731698,78.601425
2352500000,-7.3077435,-173.72884
2385000000,-20.723116,-97.805275
2417500000,-16.728588,-124.19177
2450000000,-6.4757318,-39.058044
2482500000,-3.0913804,68.054688
2515000000,-0.7178371,178.01337
2547500000,1.9152784,-70.885483
2580000000,3.923985,31.855196
2612500000,3.6408684,137.46999
2645000000,2.7823603,-96.870346
2677500000,5.5460854,16.026302
2710000000,5.935266,123.80015
2742500000,4.9876242,-121.36603
2775000000,4.7428904,3.3443162
2807500000,3.6528563,136.1487
2840000000,6.3326249,-98.019791
2872500000,7.2858233,18.104214
2905000000,7.1559253,139.21846
2937500000,6.9821386,-95.982353
2970000000,7.1954694,35.469856
3002500000,7.9942703,158.03302
3035000000,8.3108921,-74.160873
3067500000,8.6310911,52.100914
3100000000,8.9262209,179.32477
3132500000,9.0907822,-52.495544
3165000000,9.5328951,75.248344
3197500000,9.7562265,-161.48628
3230000000,8.9992638,-38.325054
3262500000,7.220439,92.736443
3295000000,5.5363784,-129.03169
3327500000,5.0465889,11.551359
3360000000,5.2316074,155.85083
3392500000,5.9081621,-66.611725
3425000000,6.6989527,68.921143
3457500000,6.4489951,-157.85986
3490000000,6.9056153,-19.570091
3522500000,7.2367687,116.07065
3555000000,7.622139,-109.77868
3587500000,7.5893598,23.448051
3620000000,7.2659349,158.09415
3652500000,6.9952121,-66.533989
3685000000,5.987854,70.217964
3717500000,5.7359376,-148.89194
3750000000,4.8031039,-8.5206299
3782500000,4.2227912,137.53281
3815000000,4.389154,-77.479073
3847500000,4.1587114,63.151035
3880000000,4.0542316,-152.11029
3912500000,3.6861134,-8.648098
3945000000,3.0039256,138.42712
3977500000,3.1891203,-71.089439
4010000000,3.8246953,76.081291
4042500000,4.6393399,-142.62357
4075000000,4.958354,-6.076508
4107500000,4.0270438,130.40622
4140000000,2.3704398,-88.22187
4172500000,0.49612671,59.903095
4205000000,-0.51650631,-144.49657
4237500000,-0.64302444,5.6972356
4270000000,-0.85839981,154.74818
4302500000,-2.2607548,-56.160034
4335000000,-2.7975335,104.96543
4367500000,-1.7454325,-100.38609
4400000000,-1.0288584,51.80806
4432500000,0.043162771,-162.76613
4465000000,0.2436136,-21.382584
4497500000,-1.0402926,121.82036
4530000000,-2.1573367,-88.694824
4562500000,-3.5305829,61.157734
4595000000,-4.7894597,-148.30296
4627500000,-6.63065,1.9704298
4660000000,-10.341761,162.21075
4692500000,-11.462105,-22.963079
4725000000,-11.157876,148.50801
4757500000,-10.573021,-48.797577
4790000000,-9.9267235,112.02963
4822500000,-9.1189032,-90.985016
4855000000,-8.7294369,63.475163
4887500000,-8.9208879,-143.68332
4920000000,-10.214625,12.815185
4952500000,-12.356529,168.99095
4985000000,-14.474533,-9.6212034
5017500000,-13.297107,166.82141
5050000000,-11.97495,-20.426277
5082500000,-9.7404537,143.04039
5115000000,-7.5652137,-58.542118
5147500000,-6.8906012,92.041237
5180000000,-6.8713555,-110.63322
5212500000,-6.9895983,49.754223
5245000000,-6.7884264,-146.81459
5277500000,-5.8075819,14.360723
5310000000,-5.1076016,171.71237
5342500000,-4.9230971,-30.840275
5375000000,-4.6620402,126.39526
5407500000,-4.4050727,-74.344444
5440000000,-4.6965108,81.363251
5472500000,-5.247395,-119.18576
5505000000,-6.17272,44.585915
5537500000,-6.6138959,-143.60802
5570000000,-5.054419,24.352903
5602500000,-3.8879473,-177.25339
5635000000,-3.7513435,-23.615919
5667500000,-4.5898919,137.76894
5700000000,-4.6599369,-54.359398
5732500000,-4.2967806,108.32235
5765000000,-3.9618175,-90.891518
5797500000,-4.2970943,67.562828
5830000000,-5.2755346,-128.99768
5862500000,-5.6904697,38.771252
5895000000,-6.6084876,-152.57414
5927500000,-6.2094378,20.642426
5960000000,-5.4158726,-165.28104
5992500000,-3.5786324,-1.3976306
6025000000,-2.3066893,158.48083
6057500000,-2.104542,-43.608479
6090000000,-2.1366508,116.171
6122500000,-2.0975013,-78.836807
6155000000,-1.9273517,84.79863
6187500000,-2.0940089,-113.39869
6220000000,-2.2408867,51.378544
6252500000,-2.372927,-140.04463
6285000000,-1.9809992,23.487591
6317500000,-1.8005419,-170.87399
6350000000,-1.9502618,-7.2602873
6382500000,-2.1064517,156.00255
6415000000,-2.8591805,-35.838581
6447500000,-3.4321494,134.07512
6480000000,-3.2469604,-54.730427
6512500000,-2.8161209,115.32109
6545000000,-2.7589269,-76.71949
6577500000,-2.4721987,89.145821
6610000000,-2.5247626,-102.02555
6642500000,-2.5036838,65.984444
6675000000,-2.1409135,-127.97976
6707500000,-2.4323986,39.363354
6740000000,-2.9213521,-150.77037
6772500000,-2.3872886,20.032299
6805000000,-1.8726343,-172.52341
6837500000,-1.6946722,-6.9678178
6870000000,-1.1783794,160.57835
6902500000,-0.75611293,-36.609161
6935000000,-0.82434541,126.36372
6967500000,-1.0155261,-69.889885
7000000000,-1.5254409,91.998482
END

