!CSV A.01.01
!Agilent Technologies,N5225A,MY51451353,A.10.00.00
!Agilent N5225A: A.10.00.00
!Date: Sunday, September 20, 2020 15:38:16
!Source: Standard

BEGIN CH1_DATA
Freq(Hz),S12(DB),S12(DEG)
500000000,-10.122708,-152.12938
532500000,-14.099016,-146.20496
565000000,-10.78431,-56.622726
597500000,-3.4970629,31.453493
630000000,2.7445455,56.565933
662500000,6.7252183,103.74017
695000000,14.596631,143.92795
727500000,17.649673,71.420624
760000000,17.893921,20.839127
792500000,17.103472,-39.329044
825000000,16.944052,-130.15688
857500000,17.396917,-174.51271
890000000,17.015059,164.88515
922500000,17.313408,100.85024
955000000,17.600554,76.891418
987500000,17.137529,43.398548
1020000000,17.616541,19.854801
1052500000,14.995254,13.271177
1085000000,17.4118,-0.096199051
1117500000,15.374786,10.667039
1150000000,16.93992,17.912703
1182500000,15.888504,18.726336
1215000000,17.069324,43.348179
1247500000,16.364952,56.69273
1280000000,15.502172,100.80396
1312500000,15.356434,140.71541
1345000000,15.929088,-175.30568
1377500000,15.461315,-141.56528
1410000000,14.570646,-109.23827
1442500000,14.952972,-41.998791
1475000000,16.109802,-6.8844352
1507500000,15.153353,56.430012
1540000000,15.727409,103.95767
1572500000,15.156921,146.6292
1605000000,14.604352,-141.32419
1637500000,14.634121,-84.786674
1670000000,11.632498,-21.502693
1702500000,13.376439,56.062183
1735000000,12.643338,127.46186
1767500000,11.976494,-168.04999
1800000000,11.612154,-83.348755
1832500000,10.804347,1.6385524
1865000000,9.9856024,84.468102
1897500000,12.19141,177.45537
1930000000,12.791636,-109.16977
1962500000,11.827323,-26.792969
1995000000,9.5977287,69.211922
2027500000,9.4246244,161.92046
2060000000,9.5356321,-104.15273
2092500000,9.3567438,-8.0011301
2125000000,9.6231003,87.427773
2157500000,9.6586428,178.3398
2190000000,9.2451887,-87.395065
2222500000,8.7906895,4.360908
2255000000,7.627368,101.38086
2287500000,4.8293853,-155.55104
2320000000,3.1478469,-48.08234
2352500000,0.67785704,71.50174
2385000000,0.67924178,-165.46002
2417500000,0.5501067,-44.804821
2450000000,2.464246,74.293655
2482500000,3.1215773,-176.54575
2515000000,3.9207587,-60.95528
2547500000,3.6638591,38.129787
2580000000,2.4396558,159.76123
2612500000,3.9879479,-92.358353
2645000000,1.7443352,6.6799436
2677500000,0.59747815,141.41978
2710000000,0.84975541,-99.835609
2742500000,0.21703064,19.03685
2775000000,-1.614067,149.45876
2807500000,0.76974541,-79.695442
2840000000,-0.27426332,48.713772
2872500000,2.964889,-179.3898
2905000000,3.5504763,-65.971886
2937500000,3.4769001,53.194702
2970000000,2.4502697,-177.04076
3002500000,3.4783256,-56.487522
3035000000,3.5993249,64.635391
3067500000,1.6777215,-171.90817
3100000000,0.95318985,-29.490473
3132500000,2.111269,107.54821
3165000000,2.7530317,-118.441
3197500000,4.6877971,9.0690842
3230000000,4.5626235,130.84605
3262500000,4.813087,-101.78519
3295000000,3.575469,24.563818
3327500000,2.0854762,166.82475
3360000000,3.6929247,-55.219215
3392500000,4.1528463,74.303185
3425000000,5.2410026,-150.87357
3457500000,5.2434645,-25.020153
3490000000,5.2107558,107.53011
3522500000,4.8304138,-121.41768
3555000000,4.3625493,13.527848
3587500000,4.4607444,150.71648
3620000000,4.6824799,-77.699944
3652500000,4.1707506,54.264885
3685000000,3.5466332,-174.1869
3717500000,1.7405946,-36.262238
3750000000,1.1756008,108.66933
3782500000,1.8048428,-107.84454
3815000000,2.3711047,28.414486
3847500000,1.6762135,160.74936
3880000000,0.5443306,-62.319473
3912500000,-1.0898077,83.345161
3945000000,-2.5667117,-129.51183
3977500000,-3.0567698,28.800764
4010000000,-1.615937,177.0831
4042500000,-0.78222656,-41.470909
4075000000,0.0032612977,96.705498
4107500000,-0.64285982,-129.8241
4140000000,-2.1769505,12.665149
4172500000,-2.9459686,156.56987
4205000000,-3.9183197,-59.098301
4237500000,-5.1017876,89.898384
4270000000,-5.6478467,-120.75951
4302500000,-6.3857331,30.6555
4335000000,-6.5437427,-179.77596
4367500000,-6.9960818,-26.549368
4400000000,-6.8247395,121.89294
4432500000,-6.7485924,-84.864243
4465000000,-6.087461,61.749187
4497500000,-6.6266403,-152.21303
4530000000,-7.3110375,-5.4549165
4562500000,-7.9637656,148.78903
4595000000,-7.8766026,-66.33992
4627500000,-9.4845209,78.362373
4660000000,-10.931534,-126.83461
4692500000,-11.704726,25.458429
4725000000,-13.35101,-178.51556
4757500000,-12.937206,-23.61961
4790000000,-13.664616,125.18143
4822500000,-14.129824,-81.336052
4855000000,-15.387093,60.125179
4887500000,-19.504261,-160.24394
4920000000,-23.544107,25.093258
4952500000,-26.654026,171.92545
4985000000,-33.285542,-16.431219
5017500000,-33.227974,3.6331317
5050000000,-22.633011,88.078842
5082500000,-19.847399,-139.78499
5115000000,-19.919352,-4.2982464
5147500000,-23.247345,154.30498
5180000000,-27.923756,23.531466
5212500000,-16.643862,-175.0668
5245000000,-13.781475,-33.926083
5277500000,-12.197251,112.97926
5310000000,-10.321012,-92.27021
5342500000,-9.0114059,50.109211
5375000000,-9.0755444,-165.41844
5407500000,-9.7918453,-12.693709
5440000000,-10.809745,143.04602
5472500000,-11.606792,-51.153393
5505000000,-11.589125,116.08601
5537500000,-10.612286,-71.978699
5570000000,-7.7801681,88.37252
5602500000,-6.671946,-115.10926
5635000000,-5.4061933,38.275349
5667500000,-5.0023828,-167.86618
5700000000,-4.9605165,-13.827909
5732500000,-5.4082227,143.15762
5765000000,-5.630888,-56.566402
5797500000,-6.1657825,105.61322
5830000000,-5.8422742,-92.184471
5862500000,-5.6182284,68.106239
5895000000,-5.9577336,-129.34206
5927500000,-5.3316727,31.340702
5960000000,-5.2739711,-165.89969
5992500000,-4.6934175,-7.3143191
6025000000,-5.1027379,150.82799
6057500000,-5.3612967,-43.121288
6090000000,-4.5900135,117.21555
6122500000,-4.054214,-82.636345
6155000000,-3.8758867,75.539856
6187500000,-4.4308281,-125.65207
6220000000,-4.5988369,37.060387
6252500000,-4.9563885,-158.6433
6285000000,-5.0499959,1.1736258
6317500000,-5.5491652,167.98009
6350000000,-5.8789248,-25.934038
6382500000,-5.8626499,142.33354
6415000000,-5.4293985,-49.583443
6447500000,-4.9692993,114.91285
6480000000,-4.5702209,-81.710739
6512500000,-4.094717,80.622536
6545000000,-4.4308987,-118.61585
6577500000,-4.8980513,43.714436
6610000000,-5.6151104,-150.0563
6642500000,-6.5398216,20.113396
6675000000,-6.14679,-169.90408
6707500000,-6.0626488,-1.0123647
6740000000,-5.6286511,167.28101
6772500000,-4.7645941,-29.103111
6805000000,-4.4425402,134.07919
6837500000,-4.4781127,-65.505196
6870000000,-4.696383,98.505165
6902500000,-4.9260936,-96.573624
6935000000,-5.2647252,66.951233
6967500000,-5.7692089,-124.91751
7000000000,-5.6587777,40.511276
END

