!CSV A.01.01
!Agilent Technologies,N5225A,MY51451353,A.10.00.00
!Agilent N5225A: A.10.00.00
!Date: Sunday, September 20, 2020 15:41:28
!Source: Standard

BEGIN CH1_DATA
Freq(Hz),S12(DB),S12(DEG)
500000000,-14.894905,-139.76138
532500000,-15.955743,-166.21405
565000000,-14.061498,-88.830696
597500000,-7.5021663,17.869219
630000000,0.35163897,36.723503
662500000,6.8178949,82.430878
695000000,13.00317,121.316
727500000,17.126589,68.252655
760000000,17.633642,2.9847438
792500000,17.001125,-66.048653
825000000,17.081623,-153.57399
857500000,17.395615,163.23062
890000000,17.506924,128.81798
922500000,17.214943,58.18684
955000000,16.397274,50.046501
987500000,16.245493,12.565861
1020000000,17.436762,-5.8485532
1052500000,13.923779,-31.433893
1085000000,16.643961,-31.384542
1117500000,13.87144,-12.125363
1150000000,16.379581,-15.983773
1182500000,14.029379,-16.632738
1215000000,16.412291,14.510224
1247500000,15.540732,26.991095
1280000000,15.322852,64.535149
1312500000,13.934393,100.33821
1345000000,14.653817,149.22314
1377500000,14.330441,175.69737
1410000000,12.522458,-138.86142
1442500000,13.968315,-87.340256
1475000000,14.868153,-41.230373
1507500000,14.84751,14.4899
1540000000,14.667549,58.758369
1572500000,13.916002,106.94063
1605000000,14.187209,173.48393
1637500000,13.090191,-128.83875
1670000000,11.047842,-62.421238
1702500000,12.204875,8.5867071
1735000000,11.647573,80.53833
1767500000,10.629898,146.98288
1800000000,10.815522,-125.71832
1832500000,10.512076,-46.538609
1865000000,9.6068363,30.440681
1897500000,11.141774,125.39742
1930000000,11.995918,-155.3943
1962500000,12.035079,-75.820778
1995000000,10.805321,15.257576
2027500000,10.641293,96.964088
2060000000,9.5355654,-174.386
2092500000,8.70648,-82.551933
2125000000,7.1500711,10.6703
2157500000,6.4439878,109.381
2190000000,6.3112807,-157.80511
2222500000,3.1224098,-62.017742
2255000000,3.4716685,54.225323
2287500000,3.1288147,154.35274
2320000000,2.1970849,-103.56315
2352500000,0.22400041,0.47952971
2385000000,-0.66591477,117.50459
2417500000,-4.5578365,-128.70216
2450000000,-5.8326821,12.143523
2482500000,-6.0378604,158.86232
2515000000,1.6223325,-67.116066
2547500000,5.3971863,20.070469
2580000000,6.1044326,112.94769
2612500000,4.808784,-147.66083
2645000000,3.0554218,-42.030064
2677500000,2.7452919,86.990349
2710000000,2.5597227,-154.9776
2742500000,2.8131104,-32.689438
2775000000,4.2946563,88.722984
2807500000,4.2118578,-162.23779
2840000000,3.0537062,-43.427414
2872500000,3.118427,85.275215
2905000000,2.9065137,-152.43979
2937500000,1.7566156,-28.702986
2970000000,0.43348384,114.16728
3002500000,3.4845009,-114.78592
3035000000,5.296258,3.8389285
3067500000,5.7656069,121.36294
3100000000,4.6398873,-115.0862
3132500000,4.8984017,17.42947
3165000000,5.2502913,146.28035
3197500000,5.8374033,-87.548729
3230000000,6.1756921,38.946125
3262500000,5.6844616,166.32408
3295000000,4.8380251,-64.30352
3327500000,4.2437053,76.292374
3360000000,5.5499825,-150.72227
3392500000,5.9114738,-22.596422
3425000000,6.2954636,109.27205
3457500000,6.2518535,-121.07281
3490000000,6.3657675,10.609921
3522500000,6.5851097,142.96365
3555000000,6.6832952,-87.274155
3587500000,6.5645981,44.494972
3620000000,6.5613437,177.24797
3652500000,6.1400805,-51.900063
3685000000,5.5751157,80.513168
3717500000,4.4709554,-142.46199
3750000000,4.662477,-0.79914355
3782500000,4.5669379,134.10812
3815000000,4.6211553,-88.622406
3847500000,4.2398257,45.932873
3880000000,4.0574217,-178.46468
3912500000,3.3029976,-45.2826
3945000000,1.4957901,88.944687
3977500000,-0.89794719,-127.58833
4010000000,-2.5071487,27.640753
4042500000,-1.4951311,178.65282
4075000000,-1.4132518,-39.781811
4107500000,-0.74108821,103.10012
4140000000,-0.82827389,-126.08028
4172500000,-2.7106531,14.944292
4205000000,-3.420012,156.09029
4237500000,-5.0615301,-61.841019
4270000000,-6.1618981,83.030991
4302500000,-8.4226675,-139.95717
4335000000,-13.582517,15.749059
4367500000,-14.834311,-162.13077
4400000000,-12.698969,1.5913823
4432500000,-11.753144,151.42142
4465000000,-12.456896,-59.055004
4497500000,-12.919867,101.60133
4530000000,-12.442,-104.08617
4562500000,-11.355721,51.609745
4595000000,-11.151735,-165.74937
4627500000,-12.113964,-9.7356987
4660000000,-11.411441,146.49452
4692500000,-11.028754,-66.221977
4725000000,-11.481554,85.538841
4757500000,-11.31456,-122.89429
4790000000,-11.619428,28.503157
4822500000,-11.617287,178.31741
4855000000,-12.922571,-36.56752
4887500000,-14.246646,118.16066
4920000000,-15.752747,-91.697487
4952500000,-19.209259,57.40147
4985000000,-26.206749,-128.59087
5017500000,-26.936428,94.02034
5050000000,-19.491072,-87.926369
5082500000,-16.823233,64.35215
5115000000,-14.906103,-142.80952
5147500000,-15.474053,8.9769831
5180000000,-14.74332,175.35518
5212500000,-13.382613,-22.694916
5245000000,-11.791215,134.6861
5277500000,-10.520143,-70.444534
5310000000,-8.9280109,83.870041
5342500000,-8.1743765,-124.84515
5375000000,-7.321454,27.355846
5407500000,-6.9844508,-177.44662
5440000000,-6.4230738,-24.433043
5472500000,-5.7623391,130.86652
5505000000,-5.6755977,-76.23719
5537500000,-6.1324735,79.153755
5570000000,-5.9226012,-119.85337
5602500000,-5.8963437,40.458454
5635000000,-5.2880168,-159.98792
5667500000,-4.5593476,-1.3662423
5700000000,-4.1859808,152.57668
5732500000,-4.074163,-54.216686
5765000000,-4.8181448,97.407669
5797500000,-6.6826735,-103.72972
5830000000,-7.9710364,61.444698
5862500000,-8.0724764,-128.20244
5895000000,-7.7377172,38.026493
5927500000,-6.8393507,-160.59642
5960000000,-6.5723987,1.91936
5992500000,-5.7098699,158.40788
6025000000,-5.7409415,-46.850906
6057500000,-6.4741068,111.94991
6090000000,-7.1932712,-86.76635
6122500000,-7.4146628,77.886253
6155000000,-7.2039328,-116.69616
6187500000,-7.321629,47.139011
6220000000,-6.7471428,-148.40157
6252500000,-6.4020438,16.767345
6285000000,-5.5635276,174.7726
6317500000,-5.4516249,-26.442841
6350000000,-6.3131323,132.812
6382500000,-6.9528565,-62.700844
6415000000,-7.6809335,104.89591
6447500000,-8.1238031,-84.362778
6480000000,-7.2868533,86.422035
6512500000,-6.0832081,-108.1724
6545000000,-5.6702847,53.718365
6577500000,-5.3271475,-147.11543
6610000000,-6.0448604,15.579341
6642500000,-6.5324783,-178.8414
6675000000,-6.523438,-13.335073
6707500000,-6.8228283,154.5974
6740000000,-6.9128261,-37.165489
6772500000,-6.3754659,129.14868
6805000000,-5.8590426,-64.098221
6837500000,-5.2091818,97.273247
6870000000,-4.7036681,-100.54424
6902500000,-4.7074547,59.371216
6935000000,-4.9641871,-138.98448
6967500000,-5.2343016,23.861706
7000000000,-5.693728,-174.49176
END

