!CSV A.01.01
!Agilent Technologies,N5225A,MY51451353,A.10.00.00
!Agilent N5225A: A.10.00.00
!Date: Sunday, September 20, 2020 15:41:55
!Source: Standard

BEGIN CH1_DATA
Freq(Hz),S12(DB),S12(DEG)
500000000,-12.604335,-152.87444
532500000,-15.993055,-146.4157
565000000,-11.472025,-65.897217
597500000,-4.6442218,5.6751409
630000000,0.83053619,19.676018
662500000,3.9432943,97.581978
695000000,15.622105,123.56856
727500000,17.53661,60.984928
760000000,17.310745,10.404347
792500000,17.750038,-66.234642
825000000,17.534153,-162.78473
857500000,17.67075,151.78278
890000000,17.533607,120.95932
922500000,17.448416,54.451885
955000000,17.556229,33.787788
987500000,16.759861,-7.1597371
1020000000,17.527271,-26.751287
1052500000,14.006896,-43.053741
1085000000,16.567099,-48.520344
1117500000,13.462737,-25.628981
1150000000,15.944313,-29.756325
1182500000,14.755207,-24.203197
1215000000,16.725721,-1.8577826
1247500000,15.516961,4.3940544
1280000000,15.366057,44.29744
1312500000,13.063067,73.857872
1345000000,13.800343,134.84358
1377500000,13.197255,154.22705
1410000000,12.715779,-155.85727
1442500000,12.873111,-114.96767
1475000000,12.933372,-70.069321
1507500000,11.669333,-7.2094235
1540000000,11.310029,42.531429
1572500000,11.166032,92.548027
1605000000,11.05819,162.16225
1637500000,11.563241,-142.63495
1670000000,8.7659378,-84.61235
1702500000,9.7328663,-16.117697
1735000000,7.575171,56.610191
1767500000,7.8721113,124.71735
1800000000,5.920722,-147.41093
1832500000,4.6609006,-57.561802
1865000000,5.840066,22.377247
1897500000,7.5338044,105.33873
1930000000,7.2923446,-169.94411
1962500000,7.3289428,-90.893135
1995000000,5.4636335,-0.027837846
2027500000,3.6292408,87.471436
2060000000,3.8461583,-168.89366
2092500000,3.4181187,-85.854713
2125000000,4.538466,15.261955
2157500000,4.4975848,92.145935
2190000000,1.7919556,177.53201
2222500000,-0.61039031,-91.471077
2255000000,-3.089114,31.04459
2287500000,-3.3840389,115.14278
2320000000,-5.3915029,-163.95363
2352500000,-11.251203,-110.61508
2385000000,-6.7065444,-69.978737
2417500000,-3.9133646,12.022346
2450000000,-0.59815794,99.712234
2482500000,-0.72971207,-167.98814
2515000000,0.85593563,-52.176308
2547500000,1.6613997,43.291431
2580000000,2.5494518,150.34215
2612500000,2.1831315,-112.86992
2645000000,-0.15925424,-10.713
2677500000,-1.0817972,124.29826
2710000000,-0.20646635,-103.37621
2742500000,2.1063223,12.289862
2775000000,3.6096091,124.85635
2807500000,4.2458777,-116.33472
2840000000,4.1821046,-14.823303
2872500000,1.6662807,104.79458
2905000000,0.79262102,-114.79051
2937500000,2.4149945,12.969717
2970000000,2.6043808,139.67853
3002500000,3.1265583,-95.64048
3035000000,3.4981165,33.276585
3067500000,4.8037353,162.81587
3100000000,5.7163219,-75.189705
3132500000,6.2386956,52.958244
3165000000,7.1611433,-179.5024
3197500000,8.0712461,-56.092472
3230000000,8.3754749,65.919968
3262500000,8.7533026,-169.32755
3295000000,8.3400898,-46.937004
3327500000,7.5542154,81.421295
3360000000,7.031219,-146.08791
3392500000,7.0313835,-12.907776
3425000000,8.2495461,117.63493
3457500000,7.8265195,-119.05547
3490000000,7.0637732,12.827519
3522500000,6.5547509,144.86914
3555000000,6.1114573,-80.079918
3587500000,6.1367216,54.411533
3620000000,6.092001,-173.93394
3652500000,5.4091487,-44.150131
3685000000,3.7676258,88.357552
3717500000,2.2787881,-127.18116
3750000000,2.3541765,17.545351
3782500000,2.6209974,158.94975
3815000000,3.1583035,-60.185566
3847500000,3.4866283,75.547005
3880000000,3.299428,-149.37901
3912500000,2.8046999,-11.784449
3945000000,1.7450982,128.27556
3977500000,1.3377125,-86.402985
4010000000,1.174325,55.606445
4042500000,0.58852679,-163.38388
4075000000,0.40404961,-18.81946
4107500000,0.39254013,119.26199
4140000000,-0.96487004,-104.2476
4172500000,-3.0239232,40.465313
4205000000,-4.3435235,-164.07774
4237500000,-3.9899249,-12.17878
4270000000,-3.956727,137.75038
4302500000,-3.4711924,-73.708237
4335000000,-2.8687277,71.632973
4367500000,-2.7265499,-146.74626
4400000000,-3.3448932,0.86343056
4432500000,-2.9544914,147.79295
4465000000,-2.9182553,-68.604408
4497500000,-3.5118227,71.764351
4530000000,-5.0833817,-144.31496
4562500000,-6.5439944,6.3008709
4595000000,-8.0867195,157.32014
4627500000,-9.2855196,-46.715752
4660000000,-9.8579273,110.5317
4692500000,-9.9983921,-102.40845
4725000000,-12.296765,48.665245
4757500000,-13.568687,-146.87396
4790000000,-13.558707,12.870648
4822500000,-13.931475,165.10394
4855000000,-14.808565,-41.548462
4887500000,-16.571142,113.83735
4920000000,-17.651161,-87.079376
4952500000,-19.185217,74.198502
4985000000,-21.775871,-127.83875
5017500000,-24.78623,50.315975
5050000000,-24.427221,-106.16998
5082500000,-20.101448,72.776802
5115000000,-16.331085,-129.10274
5147500000,-14.975162,22.472517
5180000000,-13.204974,-175.09283
5212500000,-11.098432,-21.279861
5245000000,-9.4057789,128.73291
5277500000,-8.7582455,-85.60656
5310000000,-9.1105433,65.445892
5342500000,-9.498435,-134.35941
5375000000,-9.0857124,21.962559
5407500000,-8.6094074,-176.83156
5440000000,-8.0218534,-21.187065
5472500000,-7.4518318,133.83531
5505000000,-7.853096,-67.166809
5537500000,-7.3976483,95.694984
5570000000,-6.3832116,-103.86987
5602500000,-5.7200074,53.806473
5635000000,-4.8590918,-150.94371
5667500000,-4.5589619,6.4017634
5700000000,-4.3204327,158.94528
5732500000,-5.0972037,-44.235703
5765000000,-5.2360744,117.24174
5797500000,-5.2365465,-84.755791
5830000000,-5.97229,72.680771
5862500000,-6.6001964,-123.90992
5895000000,-7.5058355,42.510666
5927500000,-6.7854543,-150.74385
5960000000,-6.2356582,16.39892
5992500000,-5.0826931,176.04559
6025000000,-4.2453723,-26.763824
6057500000,-4.4384794,129.7038
6090000000,-4.3363843,-68.760513
6122500000,-3.7186458,89.585678
6155000000,-3.8224738,-112.00093
6187500000,-4.1440611,46.812325
6220000000,-4.433959,-151.90619
6252500000,-4.8097572,13.952716
6285000000,-4.3925996,176.89284
6317500000,-4.0765276,-20.28974
6350000000,-3.9593635,141.60002
6382500000,-3.6681454,-58.676563
6415000000,-3.9809735,102.38383
6447500000,-4.7056208,-95.092773
6480000000,-4.7476335,69.370049
6512500000,-5.0382366,-125.06602
6545000000,-5.313592,41.239292
6577500000,-5.6624575,-155.67889
6610000000,-6.2302113,14.993457
6642500000,-5.869873,-175.39735
6675000000,-5.0681558,-11.492196
6707500000,-5.1174603,150.56201
6740000000,-5.9152036,-45.069912
6772500000,-5.9455705,123.01432
6805000000,-5.7441931,-67.572029
6837500000,-5.3783731,97.263306
6870000000,-4.7259583,-97.427811
6902500000,-4.6019845,62.784119
6935000000,-4.8889294,-133.86113
6967500000,-5.0114799,30.161037
7000000000,-5.4597912,-166.44684
END

