!CSV A.01.01
!Agilent Technologies,N5225A,MY51451353,A.10.00.00
!Agilent N5225A: A.10.00.00
!Date: Thursday, August 20, 2020 15:32:39
!Source: Standard

BEGIN CH1_DATA
Freq(Hz),S12(DB),S12(DEG)
500000000,1.2420769,-88.099083
532500000,-8.0674686,-29.92157
565000000,-17.759212,97.871468
597500000,-5.5141506,159.239
630000000,-2.4887137,-71.561005
662500000,3.8370581,-14.251884
695000000,13.742689,10.366966
727500000,14.090745,-25.091272
760000000,16.27947,-45.205803
792500000,16.71166,-107.85847
825000000,16.944494,-178.93225
857500000,17.782934,124.30971
890000000,17.725485,88.010696
922500000,17.611746,51.495838
955000000,17.757145,26.757689
987500000,17.583027,-11.928386
1020000000,17.903706,-16.517284
1052500000,16.430836,-7.9015546
1085000000,17.799145,-26.695854
1117500000,16.04608,-4.8387551
1150000000,17.76767,-15.648095
1182500000,15.660798,2.3734159
1215000000,17.730698,19.170883
1247500000,17.230049,38.377586
1280000000,17.664011,97.918274
1312500000,17.312214,115.65468
1345000000,17.538635,166.80313
1377500000,17.134804,-161.52531
1410000000,13.615822,-101.7924
1442500000,16.557888,-34.464325
1475000000,17.06278,7.6997175
1507500000,16.797565,63.620373
1540000000,16.753542,119.12868
1572500000,15.308496,175.15219
1605000000,16.743353,-105.44369
1637500000,16.399462,-47.607384
1670000000,15.054825,17.548574
1702500000,14.814388,103.40211
1735000000,13.612272,179.88408
1767500000,12.717361,-82.873032
1800000000,14.725195,-9.1805344
1832500000,14.050155,72.249992
1865000000,13.83806,153.17595
1897500000,14.260187,-109.4118
1930000000,13.224849,-22.785906
1962500000,12.887444,68.046989
1995000000,12.378029,155.73639
2027500000,10.922452,-113.01533
2060000000,9.1237974,-17.524088
2092500000,7.123116,82.265251
2125000000,8.5034885,-156.26881
2157500000,7.8385472,-61.492985
2190000000,7.5741205,41.527042
2222500000,6.3546891,135.14827
2255000000,1.5892925,-106.91085
2287500000,0.033751983,5.1961422
2320000000,-3.7613089,124.59085
2352500000,-6.0445099,-98.831841
2385000000,-9.0586567,-4.8447208
2417500000,-21.444138,-88.089577
2450000000,-2.1154685,12.999743
2482500000,2.9945307,113.4983
2515000000,5.1701307,-142.0038
2547500000,7.2147956,-35.060921
2580000000,8.5149727,75.483894
2612500000,9.2117062,-176.604
2645000000,7.579421,-54.756355
2677500000,9.4741716,69.37841
2710000000,10.434695,-170.82286
2742500000,11.514596,-56.75563
2775000000,10.520179,59.950928
2807500000,10.473043,-163.17853
2840000000,11.838294,-40.160667
2872500000,12.391159,80.771683
2905000000,12.487045,-155.1369
2937500000,12.597387,-32.402687
2970000000,12.410672,101.27243
3002500000,12.826258,-134.73773
3035000000,13.290678,-13.221883
3067500000,12.49752,112.7848
3100000000,11.595763,-115.78855
3132500000,10.542558,24.604401
3165000000,10.817777,163.89911
3197500000,10.95513,-63.139404
3230000000,10.481248,72.01757
3262500000,10.503924,-148.95155
3295000000,10.247403,-13.073417
3327500000,10.207596,129.06613
3360000000,10.465843,-90.53772
3392500000,10.968627,46.249584
3425000000,11.810839,-176.75269
3457500000,12.011876,-47.271561
3490000000,12.011218,86.857391
3522500000,11.39894,-134.87646
3555000000,11.200692,7.200994
3587500000,11.142097,146.22102
3620000000,10.991905,-74.385834
3652500000,10.643657,65.464363
3685000000,9.9962044,-152.20895
3717500000,9.6723061,-7.1925597
3750000000,9.4913292,138.94725
3782500000,9.5484667,-78.457138
3815000000,9.7213993,64.684151
3847500000,9.5204782,-155.20685
3880000000,9.1517019,-14.672114
3912500000,8.021142,127.73878
3945000000,6.4150491,-81.654366
3977500000,5.8428173,71.87336
4010000000,5.613699,-136.49072
4042500000,5.5070453,14.153074
4075000000,5.6523671,162.81757
4107500000,5.5439477,-49.089199
4140000000,5.0918508,97.562889
4172500000,5.0736852,-112.36835
4205000000,4.7279339,30.185871
4237500000,3.025373,177.69962
4270000000,1.8034618,-24.719149
4302500000,1.6412215,132.04886
4335000000,2.0632184,-75.830002
4367500000,1.6287612,72.447304
4400000000,0.81351739,-134.03455
4432500000,0.56628364,21.581381
4465000000,0.74595648,173.55995
4497500000,0.14433807,-38.027103
4530000000,-1.048059,113.36743
4562500000,-2.3148854,-92.279861
4595000000,-3.8708384,62.742664
4627500000,-5.3820138,-143.67188
4660000000,-8.4365997,18.010925
4692500000,-9.8164434,-170.54224
4725000000,-11.054862,-3.2231655
4757500000,-11.214707,170.07666
4790000000,-10.929163,-25.883135
4822500000,-11.072027,134.67412
4855000000,-11.597748,-61.73851
4887500000,-12.502542,97.856453
4920000000,-13.326629,-96.344002
4952500000,-15.097085,76.593643
4985000000,-13.957048,-115.56272
5017500000,-14.948897,47.314892
5050000000,-17.662445,-138.78828
5082500000,-17.210629,60.458744
5115000000,-12.786706,-121.26871
5147500000,-9.6618671,33.314697
5180000000,-9.2338142,-177.44771
5212500000,-10.231098,-11.934995
5245000000,-9.7198257,163.1796
5277500000,-7.855567,-31.86939
5310000000,-6.8296041,130.82158
5342500000,-6.4246655,-66.178841
5375000000,-5.3206058,98.637962
5407500000,-3.9963861,-98.269318
5440000000,-3.0071609,55.471325
5472500000,-3.4084594,-150.97871
5505000000,-5.0824513,9.2099762
5537500000,-7.0983062,177.33412
5570000000,-7.6932359,5.0192599
5602500000,-5.8679709,-177.46227
5635000000,-3.5352697,-7.3991661
5667500000,-1.2823976,154.55414
5700000000,-0.11904027,-50.002914
5732500000,0.39057097,105.66211
5765000000,0.21796484,-98.440002
5797500000,-1.095049,61.468281
5830000000,-2.6452758,-132.51709
5862500000,-3.680697,40.40403
5895000000,-4.5302916,-140.01233
5927500000,-2.7158399,35.842373
5960000000,-1.4619806,-154.72389
5992500000,-0.024532013,6.7094378
6025000000,0.70548743,166.17941
6057500000,0.66708291,-32.076756
6090000000,0.69183481,128.0412
6122500000,0.084215879,-68.107048
6155000000,-0.69153535,100.05399
6187500000,-1.3009752,-89.804024
6220000000,-1.3989022,82.732941
6252500000,-0.91251177,-103.49834
6285000000,-0.060460605,61.897171
6317500000,0.48019567,-132.5441
6350000000,0.26800865,31.637383
6382500000,-0.044245061,-163.04567
6415000000,-0.63649976,7.6079011
6447500000,-1.2895557,179.0224
6480000000,-1.3359247,-7.9887304
6512500000,-1.3492622,164.05482
6545000000,-1.7302225,-21.680628
6577500000,-1.6772784,151.245
6610000000,-1.3505155,-32.755913
6642500000,-0.86756724,139.72018
6675000000,-0.029545367,-51.605839
6707500000,0.15963218,116.98177
6740000000,0.075824633,-74.01606
6772500000,0.53105676,94.90477
6805000000,0.70164925,-97.537704
6837500000,0.57743359,67.819511
6870000000,0.53309417,-123.84203
6902500000,0.25400683,43.214245
6935000000,-0.14502954,-148.74806
6967500000,-0.63669354,19.152502
7000000000,-1.2720442,-173.54054
END

