!CSV A.01.01
!Agilent Technologies,N5225A,MY51451353,A.10.00.00
!Agilent N5225A: A.10.00.00
!Date: Thursday, August 20, 2020 15:33:02
!Source: Standard

BEGIN CH1_DATA
Freq(Hz),S12(DB),S12(DEG)
500000000,0.11477011,-88.610481
532500000,-8.9353704,-21.978815
565000000,-17.550377,113.4631
597500000,-5.3466253,163.68317
630000000,-3.0581481,-87.802902
662500000,4.6219521,-21.334742
695000000,12.80499,1.115891
727500000,11.831014,-31.357048
760000000,15.482431,-37.53603
792500000,16.923073,-98.40007
825000000,16.70952,-175.31555
857500000,17.780903,126.14808
890000000,17.73756,90.123497
922500000,17.613462,51.927696
955000000,17.768322,26.185688
987500000,17.635656,-15.284807
1020000000,17.826509,-18.420099
1052500000,16.243921,-6.5211649
1085000000,17.752949,-26.998537
1117500000,15.672095,-5.790967
1150000000,17.749104,-12.968384
1182500000,15.965226,1.9134171
1215000000,17.706015,19.347809
1247500000,17.287664,37.178043
1280000000,17.67206,96.528404
1312500000,17.27422,113.22766
1345000000,17.476284,172.63248
1377500000,17.174564,-161.54964
1410000000,13.283166,-103.58485
1442500000,16.894348,-38.508186
1475000000,17.05624,6.2772441
1507500000,17.081976,59.555508
1540000000,16.953249,110.37049
1572500000,15.501058,166.46614
1605000000,16.641527,-109.38784
1637500000,16.202444,-50.839142
1670000000,14.999898,19.40889
1702500000,14.996722,95.572807
1735000000,13.315649,171.86224
1767500000,11.499166,-91.900215
1800000000,14.002946,-9.0563507
1832500000,13.9648,70.062668
1865000000,13.981984,149.89117
1897500000,14.411117,-119.88679
1930000000,13.116549,-40.711922
1962500000,11.609426,47.268555
1995000000,10.735026,142.37102
2027500000,7.7774057,-130.49088
2060000000,4.9686294,-23.860924
2092500000,3.702404,86.910316
2125000000,4.545248,-146.21661
2157500000,4.2641082,-44.100517
2190000000,4.961596,61.886677
2222500000,5.1830215,159.77516
2255000000,2.5029092,-93.75547
2287500000,1.2282826,17.234573
2320000000,-0.9303118,119.34961
2352500000,-9.3106766,-133.98886
2385000000,-17.617844,-27.214062
2417500000,-7.0575628,-79.033615
2450000000,1.8451438,10.45713
2482500000,6.1408978,103.71758
2515000000,7.6492343,-159.76082
2547500000,7.2777538,-54.738651
2580000000,7.3300362,61.66333
2612500000,7.6041007,173.54593
2645000000,5.5296345,-60.627163
2677500000,6.2495728,69.85862
2710000000,7.7834811,-161.22993
2742500000,9.6273785,-42.397995
2775000000,9.6785107,75.373299
2807500000,9.9161587,-150.11464
2840000000,11.87656,-29.745762
2872500000,12.623333,89.399933
2905000000,12.82288,-151.01962
2937500000,12.781278,-30.537971
2970000000,12.240605,102.53741
3002500000,12.435696,-131.58073
3035000000,12.983704,-7.5296407
3067500000,12.174365,117.13447
3100000000,10.924282,-111.74297
3132500000,9.5503044,33.056889
3165000000,10.129371,175.00716
3197500000,10.614544,-49.720963
3230000000,10.650788,86.396538
3262500000,11.117738,-134.9678
3295000000,11.23205,-2.8286698
3327500000,11.382223,136.81445
3360000000,11.753512,-83.955948
3392500000,12.311108,47.425827
3425000000,12.737922,179.38983
3457500000,12.591985,-50.88847
3490000000,12.529687,84.804337
3522500000,12.101995,-135.93312
3555000000,12.027459,4.9492245
3587500000,11.989096,142.70695
3620000000,11.973006,-80.027443
3652500000,11.661805,57.461971
3685000000,10.979332,-160.62401
3717500000,10.631312,-17.271769
3750000000,9.8480291,127.79695
3782500000,9.4514456,-86.285126
3815000000,9.4737167,59.723351
3847500000,9.3869553,-158.2883
3880000000,9.0631208,-16.90398
3912500000,8.0340929,126.71135
3945000000,6.9464631,-81.316338
3977500000,6.9384246,68.055122
4010000000,6.6091661,-144.45984
4042500000,6.3915939,2.2501619
4075000000,6.0216346,148.6969
4107500000,5.1249523,-65.363998
4140000000,3.6900301,85.23381
4172500000,3.5074465,-117.68421
4205000000,3.4783869,28.03141
4237500000,2.1144509,178.40146
4270000000,1.4695957,-23.262602
4302500000,1.7666488,131.6019
4335000000,2.1778457,-76.700073
4367500000,2.1608503,70.111519
4400000000,1.3507147,-138.95877
4432500000,1.1821684,13.962247
4465000000,1.1865608,164.03015
4497500000,0.32015988,-50.079571
4530000000,-1.1459727,100.15357
4562500000,-2.4932506,-104.49807
4595000000,-3.7965884,46.663818
4627500000,-6.0533047,-163.76021
4660000000,-9.4522409,-0.76988876
4692500000,-11.373076,168.46899
4725000000,-13.156807,-25.118042
4757500000,-14.27692,151.78299
4790000000,-13.622457,-41.31852
4822500000,-13.158404,120.22604
4855000000,-13.407326,-86.919121
4887500000,-14.605617,58.913319
4920000000,-18.250753,-162.83212
4952500000,-26.994144,-51.184891
4985000000,-28.319613,-22.057995
5017500000,-23.533297,130.06094
5050000000,-22.344225,-55.738213
5082500000,-18.025349,118.06713
5115000000,-14.022635,-75.973244
5147500000,-10.947642,78.157318
5180000000,-9.7563448,-129.79242
5212500000,-9.2776785,28.278316
5245000000,-8.7199526,-165.8941
5277500000,-7.1810617,-4.6638064
5310000000,-6.2774525,154.96509
5342500000,-6.3275065,-42.306679
5375000000,-5.2111897,123.55893
5407500000,-3.8918755,-72.033768
5440000000,-2.6652539,84.784218
5472500000,-2.2546248,-118.76265
5505000000,-2.8971348,41.611725
5537500000,-3.342591,-151.09105
5570000000,-2.6736076,20.572672
5602500000,-1.6840419,-172.1075
5635000000,-0.14985053,-9.3696461
5667500000,0.75930905,150.5417
5700000000,1.1204611,-50.856544
5732500000,1.2748326,109.19789
5765000000,1.335569,-90.977821
5797500000,0.73195922,69.161362
5830000000,-0.49507546,-129.21062
5862500000,-1.7285029,42.335175
5895000000,-2.5180144,-141.7009
5927500000,-1.3483599,31.339968
5960000000,-0.78611004,-159.09853
5992500000,0.10461222,5.5376954
6025000000,0.81224257,169.62003
6057500000,1.1258191,-26.731556
6090000000,1.4676042,133.41614
6122500000,1.1578898,-63.97834
6155000000,0.46831167,101.82127
6187500000,-0.16337006,-89.214836
6220000000,-0.39182156,80.476128
6252500000,-0.52552193,-105.98911
6285000000,0.0087984595,62.4361
6317500000,0.52507114,-129.18349
6350000000,0.56305444,37.055252
6382500000,0.64111298,-157.31158
6415000000,0.25949907,11.221858
6447500000,-0.3618235,-177.897
6480000000,-0.37546402,-6.5622153
6512500000,-0.59119916,165.52348
6545000000,-0.9663114,-19.477013
6577500000,-0.69561672,153.98628
6610000000,-0.25000075,-31.733335
6642500000,0.11989202,138.85757
6675000000,0.72744244,-52.281364
6707500000,0.90713137,116.8455
6740000000,0.82978952,-74.162437
6772500000,1.3278286,94.34893
6805000000,1.4807969,-98.405304
6837500000,1.3905164,66.276031
6870000000,1.1642411,-125.27523
6902500000,0.88296807,42.977985
6935000000,0.5499692,-147.58533
6967500000,0.32314047,21.678839
7000000000,0.082937337,-170.88828
END

