!CSV A.01.01
!Agilent Technologies,N5225A,MY51451353,A.10.00.00
!Agilent N5225A: A.10.00.00
!Date: Thursday, August 20, 2020 15:37:47
!Source: Standard

BEGIN CH1_DATA
Freq(Hz),S12(DB),S12(DEG)
500000000,-9.5865784,-100.33908
532500000,-17.245407,-98.735741
565000000,-32.743404,159.30916
597500000,-9.2570782,147.05399
630000000,-4.0895982,-123.11629
662500000,-0.33947387,-91.155197
695000000,5.0939031,-44.628704
727500000,10.933181,-87.751846
760000000,12.986512,-156.65724
792500000,11.701887,170.98576
825000000,10.873928,84.133453
857500000,12.241619,34.493103
890000000,12.237224,-2.4097917
922500000,11.451665,-11.813433
955000000,14.720759,-47.317009
987500000,16.007128,-83.988602
1020000000,17.244381,-110.30969
1052500000,14.33785,-124.88083
1085000000,15.956326,-142.64119
1117500000,10.786872,-116.46889
1150000000,15.760102,-123.01839
1182500000,12.106333,-147.40552
1215000000,15.111228,-74.138145
1247500000,16.337248,-75.231918
1280000000,15.047982,-34.195099
1312500000,14.637674,-6.1034565
1345000000,14.512934,55.048706
1377500000,14.924929,90.82795
1410000000,10.56547,128.32986
1442500000,14.506306,-164.00868
1475000000,16.003609,-128.30864
1507500000,16.812626,-73.780846
1540000000,16.871737,-37.377075
1572500000,16.429838,5.5067668
1605000000,15.934167,76.712639
1637500000,15.959306,131.69955
1670000000,12.375457,-164.71629
1702500000,14.699997,-81.201195
1735000000,15.541118,-22.053543
1767500000,14.048041,40.5191
1800000000,13.931228,119.78893
1832500000,12.339996,-169.21883
1865000000,10.150829,-81.08857
1897500000,12.05941,5.2574167
1930000000,12.469729,83.298141
1962500000,11.642458,157.57921
1995000000,8.5168743,-112.23864
2027500000,6.9044714,-30.865242
2060000000,2.3939564,66.918053
2092500000,2.6522827,-176.00049
2125000000,4.2374754,-94.522209
2157500000,2.5649743,-19.198206
2190000000,-1.2423459,67.553345
2222500000,-5.3187456,170.69402
2255000000,-2.0086904,-93.646904
2287500000,-2.1505232,-20.286697
2320000000,-2.4540088,53.573254
2352500000,-4.0126815,133.51776
2385000000,-2.9524262,-116.60526
2417500000,-0.14672056,-20.830191
2450000000,0.26816872,74.427353
2482500000,2.0113447,-179.22232
2515000000,2.6698918,-71.593002
2547500000,4.272922,31.432695
2580000000,4.5328312,135.86668
2612500000,3.973114,-115.46297
2645000000,2.9040828,0.75182712
2677500000,4.0305057,123.46436
2710000000,4.0900335,-116.52494
2742500000,5.687438,5.1257086
2775000000,6.7564664,121.02061
2807500000,7.4647622,-119.72675
2840000000,8.1889181,-1.9870448
2872500000,9.0672207,114.62374
2905000000,9.0435028,-128.63521
2937500000,8.7677765,-9.6402397
2970000000,8.7313137,114.6738
3002500000,8.0306101,-125.65764
3035000000,7.3287964,2.2408011
3067500000,7.072473,132.40414
3100000000,7.160738,-99.466331
3132500000,6.7323451,32.774044
3165000000,7.286654,171.41855
3197500000,9.1590223,-59.814678
3230000000,9.6234112,61.7673
3262500000,9.4975214,-169.2742
3295000000,9.1559887,-42.552277
3327500000,8.6806345,92.951004
3360000000,9.3928776,-136.80991
3392500000,8.9658298,-10.323052
3425000000,8.8193045,122.245
3457500000,8.223629,-108.2543
3490000000,7.6232347,23.789591
3522500000,6.6033559,160.76604
3555000000,6.6102633,-60.374523
3587500000,6.842432,75.398575
3620000000,6.8126144,-151.58943
3652500000,6.2173972,-16.109848
3685000000,5.7136331,122.11074
3717500000,5.5184574,-100.57347
3750000000,5.1125522,37.003567
3782500000,4.4608207,175.16528
3815000000,4.0588078,-42.991467
3847500000,3.5437183,95.650558
3880000000,3.2431679,-123.48547
3912500000,2.7634432,13.770115
3945000000,1.1231949,155.09604
3977500000,0.3976272,-59.252972
4010000000,-0.42656806,86.683929
4042500000,-0.90320402,-128.08687
4075000000,-1.23295,16.454239
4107500000,-1.7231106,158.38954
4140000000,-3.0986753,-61.700424
4172500000,-4.9152579,84.822609
4205000000,-6.3812537,-123.30143
4237500000,-7.7403865,30.548079
4270000000,-7.909514,-168.23877
4302500000,-6.9752164,-20.321943
4335000000,-7.0503545,125.10583
4367500000,-7.6599474,-89.843544
4400000000,-9.512167,59.056561
4432500000,-10.081029,-144.75346
4465000000,-10.644382,6.2208238
4497500000,-11.917409,160.48187
4530000000,-12.819094,-45.722218
4562500000,-13.86993,116.48912
4595000000,-15.06727,-79.490143
4627500000,-14.379749,83.279663
4660000000,-13.818965,-113.00919
4692500000,-12.275871,41.664112
4725000000,-11.578485,-164.56606
4757500000,-10.983027,-13.117384
4790000000,-10.380015,136.00499
4822500000,-10.225914,-76.138321
4855000000,-10.682014,69.269989
4887500000,-11.542448,-147.61797
4920000000,-13.572524,-3.320291
4952500000,-16.528072,148.09456
4985000000,-19.702826,-65.006111
5017500000,-25.563177,89.179619
5050000000,-40.940247,-67.853958
5082500000,-28.27445,169.7901
5115000000,-25.645588,-36.660343
5147500000,-26.465292,126.18884
5180000000,-24.662888,-49.085014
5212500000,-22.831701,104.7162
5245000000,-23.546526,-78.687553
5277500000,-18.763002,97.856628
5310000000,-15.202382,-110.25571
5342500000,-14.589786,40.563934
5375000000,-13.714095,-162.72325
5407500000,-13.065293,1.9575758
5440000000,-11.565821,161.6869
5472500000,-10.107624,-40.300354
5505000000,-9.0307388,115.43084
5537500000,-8.9090099,-88.221191
5570000000,-8.1677647,74.88063
5602500000,-7.5510406,-124.78888
5635000000,-6.1951809,34.440655
5667500000,-5.3448677,-168.91574
5700000000,-4.7614703,-13.670955
5732500000,-4.4890137,140.77426
5765000000,-4.8782883,-63.664822
5797500000,-5.7882156,91.833069
5830000000,-7.291563,-104.97071
5862500000,-7.4334135,64.519424
5895000000,-7.4067478,-130.64964
5927500000,-6.5871363,30.562962
5960000000,-6.6932015,-167.4617
5992500000,-6.4056058,-8.754446
6025000000,-6.2692471,150.45493
6057500000,-6.6812901,-50.170292
6090000000,-6.7831573,108.74084
6122500000,-7.1130147,-91.131348
6155000000,-7.8854837,70.124199
6187500000,-8.8610325,-125.9263
6220000000,-9.6199322,41.40329
6252500000,-9.7055159,-144.86447
6285000000,-8.9615955,23.295887
6317500000,-8.1240854,-170.84541
6350000000,-7.8665628,-9.3103657
6382500000,-7.8880825,154.18779
6415000000,-8.0679874,-38.362522
6447500000,-8.0076036,129.04448
6480000000,-7.6691403,-65.315857
6512500000,-7.552567,99.63208
6545000000,-8.1377068,-93.958252
6577500000,-8.37292,72.198753
6610000000,-8.7321606,-118.61195
6642500000,-9.2923775,49.088364
6675000000,-9.38904,-142.79916
6707500000,-10.08206,28.887627
6740000000,-10.000754,-158.75218
6772500000,-9.1380711,8.6710682
6805000000,-9.107461,172.45747
6837500000,-9.3915682,-24.142349
6870000000,-10.001587,140.4563
6902500000,-10.881874,-52.769997
6935000000,-12.024835,117.83275
6967500000,-12.43,-69.801414
7000000000,-12.471394,103.4229
END

