!CSV A.01.01
!Agilent Technologies,N5225A,MY51451353,A.10.00.00
!Agilent N5225A: A.10.00.00
!Date: Thursday, August 20, 2020 15:30:13
!Source: Standard

BEGIN CH1_DATA
Freq(Hz),S12(DB),S12(DEG)
500000000,-3.6509166,-106.60683
532500000,-15.053656,-36.257172
565000000,-14.205764,84.585403
597500000,-5.5973525,159.9868
630000000,0.75845474,-103.48051
662500000,4.776021,-60.464127
695000000,11.798215,-23.219662
727500000,14.58748,-73.115417
760000000,15.547024,-63.20771
792500000,16.918819,-134.96014
825000000,17.177399,137.00282
857500000,17.93704,82.092957
890000000,17.413004,57.206425
922500000,17.782991,-4.7134018
955000000,17.748142,-24.101212
987500000,17.391796,-58.939629
1020000000,17.864258,-72.955666
1052500000,15.928117,-52.422916
1085000000,17.671331,-85.495422
1117500000,15.693712,-59.507198
1150000000,17.586956,-65.99353
1182500000,16.285303,-44.26178
1215000000,17.56266,-33.488277
1247500000,17.095942,-7.098763
1280000000,17.198877,40.0107
1312500000,16.392939,75.360184
1345000000,16.997353,123.46578
1377500000,16.128401,164.37321
1410000000,13.208578,-153.74229
1442500000,16.03652,-87.624947
1475000000,16.574833,-30.877172
1507500000,16.988993,11.893345
1540000000,16.743029,66.756432
1572500000,16.46479,109.24947
1605000000,15.7327,-165.56184
1637500000,15.52423,-97.60463
1670000000,15.3105,-32.23901
1702500000,14.794762,36.104645
1735000000,13.873844,118.69593
1767500000,12.692642,-154.99323
1800000000,14.164694,-75.893806
1832500000,15.229067,8.7713995
1865000000,15.558287,71.651657
1897500000,13.770362,165.94528
1930000000,14.349212,-109.3121
1962500000,13.972876,-31.088963
1995000000,12.593174,60.435741
2027500000,11.002084,150.10564
2060000000,9.860364,-113.31244
2092500000,9.6951199,-26.397961
2125000000,5.0274477,60.028431
2157500000,1.1560261,163.02769
2190000000,-2.3137417,-92.505775
2222500000,-7.5382619,6.8925061
2255000000,-12.055061,67.022537
2287500000,-14.400361,22.51749
2320000000,-8.6296558,148.43466
2352500000,-9.0147495,-103.07487
2385000000,-0.72115564,4.4966311
2417500000,-0.60380167,98.404549
2450000000,-4.3854709,-129.84641
2482500000,1.3324484,1.1568992
2515000000,2.0351431,116.53632
2547500000,4.2045779,-119.09573
2580000000,6.9027925,-3.2977436
2612500000,7.9417157,107.21278
2645000000,8.7001791,-131.74883
2677500000,11.037222,-17.773888
2710000000,11.748673,92.736305
2742500000,12.349545,-150.49649
2775000000,13.09698,-39.57972
2807500000,13.181487,82.158478
2840000000,13.489514,-166.17978
2872500000,13.355392,-48.778503
2905000000,12.450555,71.925674
2937500000,11.625737,-161.94415
2970000000,10.479762,-28.584156
3002500000,10.955619,100.96317
3035000000,10.849889,-134.97929
3067500000,9.2255268,-5.944561
3100000000,7.7104092,136.70197
3132500000,8.8712425,-76.513
3165000000,9.9081135,56.469589
3197500000,10.668488,-169.47801
3230000000,11.610173,-39.044102
3262500000,12.006986,89.201363
3295000000,11.771307,-143.7068
3327500000,11.338378,-7.0986056
3360000000,11.172235,129.33707
3392500000,11.090783,-95.891708
3425000000,11.536594,39.241207
3457500000,11.314521,172.46872
3490000000,11.53007,-53.187721
3522500000,10.759109,83.496277
3555000000,10.671703,-134.7072
3587500000,10.64168,3.28865
3620000000,10.656918,140.21269
3652500000,10.073528,-81.974091
3685000000,9.2176828,61.78323
3717500000,9.4196205,-153.85196
3750000000,9.1938086,-11.861966
3782500000,9.173913,129.63129
3815000000,9.2633162,-87.194405
3847500000,9.4566965,51.385395
3880000000,9.2917585,-172.47806
3912500000,8.0069017,-32.033371
3945000000,6.741076,116.5563
3977500000,6.5315185,-95.839287
4010000000,6.0956855,49.384109
4042500000,5.3766389,-165.2764
4075000000,4.8091369,-17.355831
4107500000,4.3683257,128.63791
4140000000,3.2279286,-85.829147
4172500000,1.9365929,64.787933
4205000000,1.0461327,-141.36356
4237500000,0.81674522,11.135419
4270000000,0.37239215,164.57648
4302500000,0.056298528,-43.123531
4335000000,0.130821,110.50352
4367500000,0.38128474,-99.862457
4400000000,0.041615095,49.280563
4432500000,0.082333297,-160.31514
4465000000,-0.18945028,-13.617304
4497500000,-0.8916685,133.85802
4530000000,-2.1384902,-80.576599
4562500000,-4.2503114,69.790077
4595000000,-6.5262847,-133.07138
4627500000,-7.9934673,24.651691
4660000000,-10.04918,-175.96826
4692500000,-12.648223,-11.153713
4725000000,-13.855205,167.44121
4757500000,-12.999954,-23.593811
4790000000,-12.332438,138.91101
4822500000,-11.495611,-61.209621
4855000000,-10.622088,90.752075
4887500000,-11.241203,-123.15073
4920000000,-12.838936,22.602474
4952500000,-16.532139,165.3842
4985000000,-25.677372,-55.626202
5017500000,-35.393497,-121.79131
5050000000,-28.664036,62.426422
5082500000,-23.855736,-102.26244
5115000000,-17.976763,71.777046
5147500000,-13.765617,-138.42526
5180000000,-12.149692,8.0825567
5212500000,-12.63621,161.24001
5245000000,-13.136796,-32.45179
5277500000,-11.995933,141.16901
5310000000,-10.172538,-56.700726
5342500000,-9.5763235,104.83788
5375000000,-8.6441498,-90.400238
5407500000,-7.237782,78.787186
5440000000,-5.2219772,-122.10955
5472500000,-3.930505,34.641216
5505000000,-3.6262903,-167.26866
5537500000,-3.5104496,-7.3742537
5570000000,-3.1285257,159.34807
5602500000,-2.1202531,-35.002785
5635000000,-0.4218027,124.63903
5667500000,0.75549376,-77.586525
5700000000,1.4292645,74.3321
5732500000,0.80327243,-132.1011
5765000000,-0.023927948,28.974527
5797500000,-0.92554492,-167.93564
5830000000,-1.8717365,-2.1197538
5862500000,-2.0479386,169.5956
5895000000,-2.4377043,-22.021873
5927500000,-1.5565771,148.26837
5960000000,-0.86730623,-45.469467
5992500000,-0.024413669,116.79701
6025000000,0.45487586,-84.001892
6057500000,0.062548541,77.176476
6090000000,-0.096364692,-119.34349
6122500000,-0.061466455,44.171337
6155000000,-0.77770644,-150.68314
6187500000,-1.0901033,16.97525
6220000000,-1.1954765,-176.39682
6252500000,-1.3388041,-4.2216587
6285000000,-0.69415671,160.4332
6317500000,-0.58546555,-34.321133
6350000000,-0.89863855,131.47641
6382500000,-1.1483473,-63.909447
6415000000,-2.0085957,106.7387
6447500000,-2.4422774,-80.392014
6480000000,-2.3598044,92.248589
6512500000,-1.8778529,-95.072807
6545000000,-1.5791696,73.766121
6577500000,-1.4102486,-119.29391
6610000000,-1.4688712,49.469799
6642500000,-2.1137431,-140.6907
6675000000,-2.0301163,31.279552
6707500000,-2.1131902,-156.01006
6740000000,-2.1164236,16.467869
6772500000,-1.472882,-172.57149
6805000000,-1.0853417,-2.722867
6837500000,-0.714342,165.02251
6870000000,-0.062756613,-26.871246
6902500000,0.23361377,137.76604
6935000000,0.27875745,-57.205544
6967500000,0.16502729,107.84241
7000000000,-0.14052799,-87.556793
END

