!CSV A.01.01
!Agilent Technologies,N5225A,MY51451353,A.10.00.00
!Agilent N5225A: A.10.00.00
!Date: Sunday, September 20, 2020 15:49:42
!Source: Standard

BEGIN CH1_DATA
Freq(Hz),S12(DB),S12(DEG)
500000000,-22.262516,168.11919
532500000,-14.119736,131.96977
565000000,-12.758631,-126.75673
597500000,-5.755825,-63.431038
630000000,-3.089514,-16.730865
662500000,-2.054251,43.289215
695000000,11.656754,87.210617
727500000,16.101631,29.941761
760000000,17.142565,-24.954252
792500000,17.503473,-97.247025
825000000,17.015018,167.97743
857500000,16.816345,113.75548
890000000,17.650175,76.447319
922500000,16.643044,13.707607
955000000,15.934662,-0.97777051
987500000,14.607837,-33.498898
1020000000,16.733027,-57.444195
1052500000,12.747581,-91.608459
1085000000,15.181176,-78.898918
1117500000,12.770462,-51.907589
1150000000,14.92274,-68.644867
1182500000,12.32183,-75.285011
1215000000,14.993982,-33.76017
1247500000,13.13581,-22.816444
1280000000,15.075559,19.867813
1312500000,14.277139,35.807495
1345000000,11.6503,86.491241
1377500000,12.163259,123.41769
1410000000,11.478041,178.09309
1442500000,14.196999,-155.57372
1475000000,12.444633,-119.73112
1507500000,10.951314,-54.791538
1540000000,10.950566,0.30432314
1572500000,10.322422,52.409645
1605000000,10.986761,109.0832
1637500000,9.9698143,165.79114
1670000000,5.6577177,-141.83618
1702500000,6.3016629,-46.771175
1735000000,7.2562637,34.571331
1767500000,7.3017759,96.342903
1800000000,6.5921578,178.91228
1832500000,6.4468484,-95.570648
1865000000,7.2781134,-20.018763
1897500000,6.3120399,67.280975
1930000000,6.805984,150.18262
1962500000,6.5270152,-117.90976
1995000000,7.5016165,-28.235806
2027500000,6.8387942,54.2742
2060000000,7.0849605,144.88965
2092500000,6.4857478,-128.42624
2125000000,5.5005565,-26.872755
2157500000,6.0204582,63.369965
2190000000,5.1058002,158.69487
2222500000,4.1038857,-103.53918
2255000000,4.403614,0.21820948
2287500000,4.4115124,103.02118
2320000000,5.0160999,-159.36118
2352500000,4.5556459,-69.156311
2385000000,4.0703712,35.682217
2417500000,1.7917089,129.26167
2450000000,-0.8046667,-122.11759
2482500000,-2.5362213,-11.959404
2515000000,-2.5304208,96.276657
2547500000,-7.9153433,-175.91222
2580000000,-11.880929,-52.560307
2612500000,-17.781017,-29.39818
2645000000,-9.3413343,10.660795
2677500000,-6.5036716,106.70972
2710000000,-3.1928935,-140.20096
2742500000,-2.8037148,-23.915503
2775000000,1.2039199,96.402046
2807500000,4.1570215,-151.54114
2840000000,6.4039097,-48.458416
2872500000,7.1551652,59.631058
2905000000,7.4268317,169.3623
2937500000,7.2751465,-77.76133
2970000000,6.7904978,42.017174
3002500000,6.4485908,162.84785
3035000000,6.7079072,-72.288712
3067500000,7.554595,50.792286
3100000000,7.2918935,164.19557
3132500000,5.7238669,-68.752907
3165000000,6.1205697,65.058479
3197500000,6.3490152,-166.50307
3230000000,6.9638634,-40.618229
3262500000,7.3695951,83.902466
3295000000,6.4923072,-152.97758
3327500000,5.8750081,-23.552568
3360000000,5.0147691,107.20341
3392500000,4.4907737,-120.51336
3425000000,4.9432998,15.794512
3457500000,4.9916754,144.65477
3490000000,4.8933148,-86.439896
3522500000,4.1370678,50.554203
3555000000,4.6536694,-174.48418
3587500000,5.0357242,-42.011139
3620000000,5.3297849,89.633354
3652500000,4.987031,-140.28879
3685000000,4.2127891,-7.8854132
3717500000,3.3289828,128.48305
3750000000,2.6729858,-91.23616
3782500000,2.5079653,50.571697
3815000000,3.2011156,-170.94135
3847500000,3.3421288,-36.897888
3880000000,3.3862784,93.22599
3912500000,1.8519943,-134.25668
3945000000,-0.39479247,6.1330094
3977500000,-1.2008139,159.28751
4010000000,-0.5734967,-53.08902
4042500000,0.012627927,86.072403
4075000000,0.077687949,-135.56096
4107500000,0.0084410133,1.8003864
4140000000,-1.0173267,136.13651
4172500000,-2.3746846,-78.928131
4205000000,-3.4152417,68.105057
4237500000,-3.5575933,-145.73433
4270000000,-3.3461311,-2.8411641
4302500000,-4.0391364,135.92621
4335000000,-5.3243227,-80.83886
4367500000,-6.3484516,63.280159
4400000000,-7.5369296,-149.77806
4432500000,-8.1606684,1.9901959
4465000000,-8.2093315,150.35881
4497500000,-8.6314516,-66.561089
4530000000,-10.178698,73.563477
4562500000,-11.39078,-139.82063
4595000000,-13.015835,-5.9721327
4627500000,-16.696989,127.9366
4660000000,-21.96871,-91.399628
4692500000,-21.14625,24.373814
4725000000,-19.200302,138.87044
4757500000,-16.175867,-95.162071
4790000000,-13.348542,39.898361
4822500000,-11.163321,179.26988
4855000000,-9.5524073,-34.943127
4887500000,-7.4801998,109.73328
4920000000,-6.0515146,-108.56896
4952500000,-5.639082,36.752617
4985000000,-4.8812237,-178.0764
5017500000,-4.6026607,-29.357561
5050000000,-4.3217468,118.97493
5082500000,-4.0119681,-93.583328
5115000000,-4.6089401,57.229336
5147500000,-5.232347,-148.98672
5180000000,-5.3120918,7.8895559
5212500000,-5.279829,163.81334
5245000000,-5.6230597,-38.607533
5277500000,-4.9919453,121.50558
5310000000,-4.2315054,-84.429031
5342500000,-4.4241776,68.052383
5375000000,-4.343679,-137.5312
5407500000,-4.5796185,22.099857
5440000000,-4.1811037,177.8737
5472500000,-3.5753431,-27.203238
5505000000,-3.8353105,126.40904
5537500000,-4.3329926,-77.258774
5570000000,-4.2919164,84.642548
5602500000,-3.7315104,-116.82948
5635000000,-3.2763743,39.712109
5667500000,-3.1520977,-161.91125
5700000000,-2.6417723,-3.2761836
5732500000,-2.2582867,151.65385
5765000000,-1.9196969,-52.400936
5797500000,-2.084533,101.68179
5830000000,-2.6173999,-103.47412
5862500000,-3.5278702,56.076199
5895000000,-4.7770138,-135.95087
5927500000,-3.5076525,31.748137
5960000000,-2.6010561,-166.68364
5992500000,-1.666098,-11.967711
6025000000,-1.4616388,142.67709
6057500000,-1.7215569,-60.402641
6090000000,-1.6206945,95.812744
6122500000,-1.68461,-107.09513
6155000000,-1.9953266,49.205891
6187500000,-2.8103712,-152.60307
6220000000,-3.5982842,5.6947803
6252500000,-4.6016302,172.69218
6285000000,-4.6348381,-24.110943
6317500000,-4.4601216,141.03308
6350000000,-4.8320689,-59.135818
6382500000,-5.0853267,103.50002
6415000000,-5.3985004,-91.502747
6447500000,-5.5871181,73.109894
6480000000,-5.4531446,-123.99429
6512500000,-5.6338739,38.154282
6545000000,-6.3472052,-157.7778
6577500000,-6.8289237,5.3709059
6610000000,-7.6349621,175.42836
6642500000,-7.6806307,-15.288291
6675000000,-6.9551234,152.06369
6707500000,-6.7611313,-43.623562
6740000000,-6.9433446,119.09109
6772500000,-6.8171806,-77.545151
6805000000,-6.9450016,86.991226
6837500000,-6.9712806,-110.09551
6870000000,-7.0979443,54.155445
6902500000,-6.995563,-143.98062
6935000000,-7.5190554,16.085432
6967500000,-8.0940685,-178.70065
7000000000,-8.6127777,-14.004383
END

